
T1554 000:025 SEGGER J-Link V4.62 Log File (0000ms, 0025ms total)
T1554 000:025 DLL Compiled: Jan 25 2013 15:19:47 (0000ms, 0025ms total)
T1554 000:025 Logging started @ 2016-09-18 14:23 (0000ms, 0025ms total)
T1554 000:025 JLINK_SetWarnOutHandler(...) (0000ms, 0025ms total)
T1554 000:025 JLINK_OpenEx(...)
Firmware: J-Link ARM V8 compiled Nov 28 2014 13:44:46
Hardware: V8.00
S/N: 304423265
Feature(s): RDI,FlashDL,FlashBP,JFlash,GDBFULL  returns O.K. (0008ms, 0033ms total)
T1554 000:033 JLINK_SetErrorOutHandler(...) (0000ms, 0033ms total)
T1554 000:033 JLINK_ExecCommand("ProjectFile = "C:\Users\zcy\Desktop\电动起落架  完整测试程序\Project\JLinkSettings.ini"", ...)  returns 0x00 (0000ms, 0033ms total)
T1554 000:035 JLINK_ExecCommand("Device = MK20DN64xxx5", ...)
                JLINK_ExecCommand("map ram 0x1FFFE000 - 0x20001FFF", ...)  returns 0x00 (0000ms, 0000ms total)
                JLINK_AddMirrorAreaEx(Addr = 0x00000000, Size = 0x00000000) (0000ms, 0000ms total)
              Device "MK20DN64XXX5" selected (64 KB flash, 16 KB RAM).  returns 0x00 (0001ms, 0034ms total)
T1554 000:036 JLINK_ExecCommand("DisableConnectionTimeout", ...)  returns 0x00 (0000ms, 0034ms total)
T1554 000:036 JLINK_TIF_Select(JLINKARM_TIF_JTAG)  returns 0x00 (0000ms, 0034ms total)
T1554 000:036 JLINK_SetSpeed(2000) (0000ms, 0034ms total)
T1554 000:037 JLINK_GetHardwareVersion()  returns 0x13880 (0000ms, 0034ms total)
T1554 000:037 JLINK_GetDLLVersion()  returns 46200 (0000ms, 0034ms total)
T1554 000:037 JLINK_GetFirmwareString(...) (0000ms, 0034ms total)
T1554 000:043 JLINK_GetDLLVersion()  returns 46200 (0000ms, 0034ms total)
T1554 000:043 JLINK_GetCompileDateTime() (0000ms, 0034ms total)
T1554 000:046 JLINK_GetFirmwareString(...) (0000ms, 0034ms total)
T1554 000:047 JLINK_GetHardwareVersion()  returns 0x13880 (0000ms, 0034ms total)
T1554 000:053 JLINK_GetIdData(...) >0x2F8 JTAG>TotalIRLen = 4, IRPrint = 0x01 >0x30 JTAG> >0x210 JTAG> >0x40 JTAG> >0x40 JTAG> >0x40 JTAG> >0x30 JTAG> >0x40 JTAG> >0x40 JTAG> >0x40 JTAG> >0x40 JTAG> >0x40 JTAG> >0x40 JTAG> >0x40 JTAG> >0x40 JTAG> >0x40 JTAG> >0x40 JTAG> >0x40 JTAG> >0x40 JTAG> >0x40 JTAG> >0x40 JTAG> >0x40 JTAG> >0x40 JTAG> >0x40 JTAG> >0x40 JTAG> >0x40 JTAG> >0x2F8 JTAG>TotalIRLen = 4, IRPrint = 0x01 >0x30 JTAG> >0x210 JTAG> >0x78 JTAG> >0x40 JTAG> >0x40 JTAG> >0x48 JTAG> >0x40 JTAG>
 >0x40 JTAG> >0x40 JTAG> >0x48 JTAG> >0x40 JTAG> >0x40 JTAG> >0x40 JTAG> >0x30 JTAG> >0x40 JTAG> >0x48 JTAG> >0x40 JTAG> >0x30 JTAG> >0x78 JTAG> >0x40 JTAG> >0x40 JTAG> >0x48 JTAG> >0x40 JTAG> >0x40 JTAG> >0x40 JTAG> >0x48 JTAG> >0x40 JTAG> >0x40 JTAG> >0x30 JTAG> >0x40 JTAG> >0x40 JTAG> >0x40 JTAG> >0x40 JTAG> >0x40 JTAG> >0x48 JTAG> >0x40 JTAG> >0x78 JTAG> >0x40 JTAG> >0x30 JTAG> >0x40 JTAG> >0x40 JTAG> >0x40 JTAG> >0x40 JTAG> >0x40 JTAG> >0x48 JTAG> >0x40 JTAG> >0x78 JTAG> >0x40 JTAG> >0x30 JTAG>
 >0x40 JTAG> >0x48 JTAG> >0x40 JTAG> >0x40 JTAG> >0x40 JTAG> >0x30 JTAG> >0x40 JTAG> >0x48 JTAG> >0x40 JTAG>Found Cortex-M4 r0p1, Little endian. >0x48 JTAG> >0x48 JTAG> >0x40 JTAG> >0x40 JTAG> >0x30 JTAG> >0x30 JTAG> >0x48 JTAG> >0x40 JTAG> >0x78 JTAG> >0x40 JTAG> >0x30 JTAG> >0x40 JTAG> >0x48 JTAG> >0x40 JTAG> >0x40 JTAG> >0x40 JTAG> >0x30 JTAG> >0x40 JTAG> >0x48 JTAG> >0x40 JTAG>TPIU fitted. >0x40 JTAG> >0x40 JTAG> >0x30 JTAG> >0x40 JTAG> >0x48 JTAG> >0x40 JTAG> >0x40 JTAG> >0x40 JTAG> >0x30 JTAG>
 >0x40 JTAG> >0x48 JTAG> >0x40 JTAG> >0x40 JTAG> >0x40 JTAG> >0x30 JTAG> >0x40 JTAG> >0x48 JTAG> >0x40 JTAG> >0x40 JTAG> >0x40 JTAG> >0x30 JTAG> >0x40 JTAG> >0x48 JTAG> >0x40 JTAG> >0x40 JTAG> >0x40 JTAG> >0x30 JTAG> >0x40 JTAG> >0x48 JTAG> >0x40 JTAG>FPUnit: 6 code (BP) slots and 2 literal slots >0x40 JTAG> >0x40 JTAG> >0x30 JTAG> >0x40 JTAG> >0x48 JTAG> >0x40 JTAG> >0x40 JTAG> >0x40 JTAG> >0x30 JTAG> >0x30 JTAG> >0x48 JTAG> >0x40 JTAG> >0x78 JTAG> >0x40 JTAG> >0x30 JTAG> >0x40 JTAG> >0x48 JTAG>
 >0x40 JTAG> >0x40 JTAG> >0x40 JTAG> >0x30 JTAG> >0x30 JTAG> >0x48 JTAG> >0x40 JTAG> -- CPU_ReadMem(2 bytes @ 0x40052000) ScanLen=4 NumDevices=1 aId[0]=0x4BA00477 aIrRead[0]=0 aScanLen[0]=0 aScanRead[0]=0 (0064ms, 0098ms total)
T1554 000:118 JLINK_JTAG_GetDeviceID(DeviceIndex = 0)  returns 0x4BA00477 (0000ms, 0099ms total)
T1554 000:118 JLINK_JTAG_GetDeviceInfo(DeviceIndex = 0)  returns 0x00 (0000ms, 0099ms total)
T1554 000:118 JLINK_TIF_Select(JLINKARM_TIF_SWD)  returns 0x00 (0000ms, 0099ms total)
T1554 000:118 JLINK_JTAG_StoreRaw(..., 0x108 Bits)  returns 0x00 (0000ms, 0099ms total)
T1554 000:118 JLINK_JTAG_GetU32(BitPos = 227) >0x108 TIF>  returns 0x2BA01477 (0003ms, 0102ms total)
T1554 000:122 JLINK_JTAG_StoreRaw(..., 0x08 Bits)  returns 0x00 (0000ms, 0102ms total)
T1554 000:122 JLINK_JTAG_StoreRaw(..., 0x03 Bits)  returns 0x08 (0000ms, 0102ms total)
T1554 000:122 JLINK_JTAG_StoreRaw(..., 0x28 Bits)  returns 0x0B (0000ms, 0102ms total)
T1554 000:122 JLINK_JTAG_GetU8(BitPos = 8) >0x33 TIF>  returns 0xB9 (0001ms, 0103ms total)
T1554 000:123 JLINK_JTAG_GetU32(BitPos = 11)  returns 0x2BA01477 (0000ms, 0103ms total)
T1554 000:123 JLINK_JTAG_GetU8(BitPos = 43)  returns 0x02 (0000ms, 0103ms total)
T1554 000:123 JLINK_JTAG_StoreRaw(..., 0x08 Bits)  returns 0x00 (0000ms, 0103ms total)
T1554 000:123 JLINK_JTAG_StoreRaw(..., 0x03 Bits)  returns 0x08 (0000ms, 0103ms total)
T1554 000:123 JLINK_JTAG_StoreRaw(..., 0x28 Bits)  returns 0x0B (0000ms, 0103ms total)
T1554 000:123 JLINK_JTAG_GetU8(BitPos = 8) >0x33 TIF>  returns 0x01 (0000ms, 0103ms total)
T1554 000:123 JLINK_JTAG_GetU32(BitPos = 11)  returns 0x00000000 (0000ms, 0103ms total)
T1554 000:123 JLINK_JTAG_GetU8(BitPos = 43)  returns 0x02 (0000ms, 0103ms total)
T1554 000:123 JLINK_JTAG_StoreRaw(..., 0x08 Bits)  returns 0x00 (0000ms, 0103ms total)
T1554 000:123 JLINK_JTAG_StoreRaw(..., 0x03 Bits)  returns 0x08 (0000ms, 0103ms total)
T1554 000:123 JLINK_JTAG_StoreRaw(..., 0x02 Bits)  returns 0x0B (0000ms, 0103ms total)
T1554 000:123 JLINK_JTAG_StoreRaw(..., 0x28 Bits)  returns 0x0D (0000ms, 0103ms total)
T1554 000:123 JLINK_JTAG_GetU8(BitPos = 8) >0x35 TIF>  returns 0x39 (0001ms, 0104ms total)
T1554 000:124 JLINK_JTAG_StoreRaw(..., 0x08 Bits)  returns 0x00 (0000ms, 0104ms total)
T1554 000:124 JLINK_JTAG_StoreRaw(..., 0x03 Bits)  returns 0x08 (0000ms, 0104ms total)
T1554 000:124 JLINK_JTAG_StoreRaw(..., 0x28 Bits)  returns 0x0B (0000ms, 0104ms total)
T1554 000:124 JLINK_JTAG_GetU8(BitPos = 8) >0x33 TIF>  returns 0x09 (0001ms, 0105ms total)
T1554 000:125 JLINK_JTAG_GetU32(BitPos = 11)  returns 0xF0000001 (0000ms, 0105ms total)
T1554 000:125 JLINK_JTAG_GetU8(BitPos = 43)  returns 0x03 (0000ms, 0105ms total)
T1554 000:126 JLINK_ClrRESET() (0001ms, 0106ms total)
T1554 000:327 JLINK_JTAG_StoreRaw(..., 0x08 Bits)  returns 0x00 (0000ms, 0106ms total)
T1554 000:327 JLINK_JTAG_StoreRaw(..., 0x03 Bits)  returns 0x08 (0000ms, 0106ms total)
T1554 000:327 JLINK_JTAG_StoreRaw(..., 0x02 Bits)  returns 0x0B (0000ms, 0106ms total)
T1554 000:327 JLINK_JTAG_StoreRaw(..., 0x28 Bits)  returns 0x0D (0000ms, 0106ms total)
T1554 000:327 JLINK_JTAG_GetU8(BitPos = 8) >0x35 TIF>  returns 0xD9 (0000ms, 0106ms total)
T1554 000:327 JLINK_JTAG_StoreRaw(..., 0x08 Bits)  returns 0x00 (0000ms, 0106ms total)
T1554 000:327 JLINK_JTAG_StoreRaw(..., 0x03 Bits)  returns 0x08 (0000ms, 0106ms total)
T1554 000:327 JLINK_JTAG_StoreRaw(..., 0x02 Bits)  returns 0x0B (0000ms, 0106ms total)
T1554 000:327 JLINK_JTAG_StoreRaw(..., 0x28 Bits)  returns 0x0D (0000ms, 0106ms total)
T1554 000:327 JLINK_JTAG_GetU8(BitPos = 8) >0x35 TIF>  returns 0x19 (0000ms, 0106ms total)
T1554 000:327 JLINK_JTAG_StoreRaw(..., 0x08 Bits)  returns 0x00 (0000ms, 0106ms total)
T1554 000:327 JLINK_JTAG_StoreRaw(..., 0x03 Bits)  returns 0x08 (0000ms, 0106ms total)
T1554 000:327 JLINK_JTAG_StoreRaw(..., 0x28 Bits)  returns 0x0B (0000ms, 0106ms total)
T1554 000:327 JLINK_JTAG_GetU8(BitPos = 8) >0x33 TIF>  returns 0x91 (0001ms, 0107ms total)
T1554 000:328 JLINK_JTAG_GetU32(BitPos = 11)  returns 0x000001D2 (0000ms, 0107ms total)
T1554 000:328 JLINK_JTAG_GetU8(BitPos = 43)  returns 0x03 (0000ms, 0107ms total)
T1554 000:328 JLINK_JTAG_StoreRaw(..., 0x08 Bits)  returns 0x00 (0000ms, 0107ms total)
T1554 000:328 JLINK_JTAG_StoreRaw(..., 0x03 Bits)  returns 0x08 (0000ms, 0107ms total)
T1554 000:328 JLINK_JTAG_StoreRaw(..., 0x28 Bits)  returns 0x0B (0000ms, 0107ms total)
T1554 000:328 JLINK_JTAG_GetU8(BitPos = 8) >0x33 TIF>  returns 0x91 (0001ms, 0108ms total)
T1554 000:329 JLINK_JTAG_GetU32(BitPos = 11)  returns 0x00000032 (0000ms, 0108ms total)
T1554 000:329 JLINK_JTAG_GetU8(BitPos = 43)  returns 0x03 (0000ms, 0108ms total)
T1554 000:329 JLINK_GetDeviceFamily()  returns 14 (0000ms, 0108ms total)
T1554 000:334 JLINK_ReadMem (0xE00FFFF0, 0x0010 Bytes, ...) >0x108 TIF>Found SWD-DP with ID 0x2BA01477 >0x0D TIF> >0x28 TIF> >0x0D TIF> >0x28 TIF> >0x0D TIF> >0x21 TIF> >0x0D TIF> >0x28 TIF> >0x0D TIF> >0x21 TIF> >0x0D TIF> >0x21 TIF> >0x0D TIF> >0x21 TIF> >0x0D TIF> >0x21 TIF> >0x0D TIF> >0x21 TIF> >0x0D TIF> >0x21 TIF> >0x0D TIF> >0x21 TIF> >0x0D TIF> >0x21 TIF> >0x0D TIF> >0x28 TIF> >0x0D TIF> >0x28 TIF> >0x0D TIF> >0x28 TIF> >0x0D TIF> >0x28 TIF> >0x0D TIF> >0x28 TIF> >0x0D TIF> >0x28 TIF> >0x0D TIF>
 >0x28 TIF> >0x0D TIF> >0x21 TIF> >0x0D TIF> >0x21 TIF> >0x0D TIF> >0x21 TIF> >0x0D TIF> >0x21 TIF> >0x0D TIF> >0x21 TIF> >0x0D TIF> >0x21 TIF> >0x0D TIF> >0x21 TIF> >0x0D TIF> >0x21 TIF> >0x0D TIF> >0x21 TIF> >0x0D TIF> >0x21 TIF> >0x0D TIF> >0x21 TIF> >0x0D TIF> >0x21 TIF> >0x0D TIF> >0x21 TIF> >0x0D TIF> >0x21 TIF> >0x0D TIF> >0x21 TIF> >0x0D TIF> >0x21 TIF> >0x0D TIF> >0x21 TIF> >0x0D TIF> >0x21 TIF> >0x0D TIF> >0x21 TIF> >0x0D TIF> >0x21 TIF> >0x0D TIF> >0x21 TIF> >0x0D TIF> >0x21 TIF> >0x0D TIF>
 >0x21 TIF> >0x0D TIF> >0x21 TIF> >0x0D TIF> >0x21 TIF> >0x0D TIF> >0x21 TIF> >0x0D TIF> >0x21 TIF> >0x0D TIF> >0x21 TIF> >0x0D TIF> >0x21 TIF> >0x0D TIF> >0x21 TIF> >0x0D TIF> >0x21 TIF> >0x0D TIF> >0x21 TIF> >0x0D TIF> >0x21 TIF> >0x0D TIF> >0x21 TIF> >0x0D TIF> >0x21 TIF> >0x0D TIF> >0x21 TIF> >0x0D TIF> >0x21 TIF> >0x0D TIF> >0x21 TIF> >0x0D TIF> >0x21 TIF> >0x0D TIF> >0x21 TIF> >0x0D TIF> >0x21 TIF> >0x0D TIF> >0x21 TIF> >0x0D TIF> >0x21 TIF> >0x0D TIF> >0x21 TIF> >0x0D TIF> >0x21 TIF> >0x0D TIF>
 >0x21 TIF> >0x0D TIF> >0x21 TIF> >0x0D TIF> >0x21 TIF> >0x0D TIF> >0x21 TIF> >0x0D TIF> >0x21 TIF> >0x0D TIF> >0x21 TIF> >0x0D TIF> >0x21 TIF> >0x0D TIF> >0x21 TIF> >0x0D TIF> >0x21 TIF> >0x0D TIF> >0x21 TIF> >0x0D TIF> >0x21 TIF> >0x0D TIF> >0x21 TIF> >0x0D TIF> >0x21 TIF> >0x0D TIF> >0x21 TIF> >0x0D TIF> >0x21 TIF> >0x0D TIF> >0x21 TIF> >0x0D TIF> >0x21 TIF> >0x0D TIF> >0x21 TIF> >0x0D TIF> >0x21 TIF> >0x0D TIF> >0x21 TIF> >0x0D TIF> >0x21 TIF> >0x0D TIF> >0x21 TIF> >0x0D TIF> >0x21 TIF> >0x0D TIF>
 >0x21 TIF> >0x0D TIF> >0x21 TIF> >0x0D TIF> >0x21 TIF> >0x0D TIF> >0x21 TIF> >0x0D TIF> >0x21 TIF> >0x0D TIF> >0x21 TIF> >0x0D TIF> >0x21 TIF> >0x0D TIF> >0x21 TIF> >0x0D TIF> >0x21 TIF> >0x0D TIF> >0x21 TIF> >0x0D TIF> >0x21 TIF> >0x0D TIF> >0x21 TIF> >0x0D TIF> >0x21 TIF> >0x0D TIF> >0x21 TIF> >0x0D TIF> >0x21 TIF> >0x0D TIF> >0x21 TIF> >0x0D TIF> >0x21 TIF> >0x0D TIF> >0x21 TIF> >0x0D TIF> >0x21 TIF> >0x0D TIF> >0x21 TIF> >0x0D TIF> >0x21 TIF> >0x0D TIF> >0x21 TIF> >0x0D TIF> >0x21 TIF> >0x0D TIF>
 >0x21 TIF> >0x0D TIF> >0x21 TIF> >0x0D TIF> >0x21 TIF> >0x0D TIF> >0x21 TIF> >0x0D TIF> >0x21 TIF> >0x0D TIF> >0x21 TIF> >0x0D TIF> >0x21 TIF> >0x0D TIF> >0x21 TIF> >0x0D TIF> >0x21 TIF> >0x0D TIF> >0x21 TIF> >0x0D TIF> >0x21 TIF> >0x0D TIF> >0x21 TIF> >0x0D TIF> >0x21 TIF> >0x0D TIF> >0x21 TIF> >0x0D TIF> >0x21 TIF> >0x0D TIF> >0x21 TIF> >0x0D TIF> >0x21 TIF> >0x0D TIF> >0x21 TIF> >0x0D TIF> >0x21 TIF> >0x0D TIF> >0x21 TIF> >0x0D TIF> >0x21 TIF> >0x0D TIF> >0x21 TIF> >0x0D TIF> >0x21 TIF> >0x0D TIF>
 >0x21 TIF> >0x0D TIF> >0x21 TIF> >0x0D TIF> >0x21 TIF> >0x0D TIF> >0x21 TIF> >0x0D TIF> >0x21 TIF> >0x0D TIF> >0x21 TIF> >0x0D TIF> >0x21 TIF> >0x0D TIF> >0x21 TIF> >0x0D TIF> >0x21 TIF> >0x0D TIF> >0x21 TIF> >0x0D TIF> >0x21 TIF> >0x0D TIF> >0x21 TIF> >0x0D TIF> >0x21 TIF> >0x0D TIF> >0x21 TIF> >0x0D TIF> >0x21 TIF> >0x0D TIF> >0x21 TIF> >0x0D TIF> >0x21 TIF> >0x0D TIF> >0x21 TIF> >0x0D TIF> >0x21 TIF> >0x0D TIF> >0x21 TIF> >0x0D TIF> >0x21 TIF> >0x0D TIF> >0x21 TIF> >0x0D TIF> >0x21 TIF> >0x0D TIF>
 >0x21 TIF> >0x0D TIF> >0x21 TIF> >0x0D TIF> >0x21 TIF> >0x0D TIF> >0x21 TIF> >0x0D TIF> >0x21 TIF> >0x0D TIF> >0x21 TIF> >0x0D TIF> >0x21 TIF> >0x0D TIF> >0x21 TIF> >0x0D TIF> >0x21 TIF> >0x0D TIF> >0x21 TIF> >0x0D TIF> >0x21 TIF> >0x0D TIF> >0x21 TIF> >0x0D TIF> >0x21 TIF> >0x0D TIF> >0x21 TIF> >0x0D TIF> >0x21 TIF> >0x0D TIF> >0x21 TIF> >0x0D TIF> >0x21 TIF> >0x0D TIF> >0x21 TIF> >0x0D TIF> >0x21 TIF> >0x0D TIF> >0x21 TIF> >0x0D TIF> >0x21 TIF> >0x0D TIF> >0x21 TIF> >0x0D TIF> >0x21 TIF> >0x0D TIF>
 >0x21 TIF> >0x0D TIF> >0x21 TIF> >0x0D TIF> >0x21 TIF> >0x0D TIF> >0x21 TIF> >0x0D TIF> >0x21 TIF> >0x0D TIF> >0x21 TIF> >0x0D TIF> >0x21 TIF> >0x0D TIF> >0x21 TIF> >0x0D TIF> >0x21 TIF> >0x0D TIF> >0x21 TIF> >0x0D TIF> >0x21 TIF> >0x0D TIF> >0x21 TIF> >0x0D TIF> >0x21 TIF> >0x0D TIF> >0x21 TIF> >0x0D TIF> >0x21 TIF> >0x0D TIF> >0x21 TIF> >0x0D TIF> >0x21 TIF> >0x0D TIF> >0x21 TIF> >0x0D TIF> >0x21 TIF> >0x0D TIF> >0x21 TIF> >0x0D TIF> >0x21 TIF> >0x0D TIF> >0x21 TIF> >0x0D TIF> >0x21 TIF> >0x0D TIF>
 >0x21 TIF> >0x0D TIF> >0x21 TIF> >0x0D TIF> >0x21 TIF> >0x0D TIF> >0x21 TIF> >0x0D TIF> >0x21 TIF> >0x0D TIF> >0x21 TIF> >0x0D TIF> >0x21 TIF> >0x0D TIF> >0x21 TIF> >0x0D TIF> >0x21 TIF> >0x0D TIF> >0x21 TIF> >0x0D TIF> >0x21 TIF> >0x0D TIF> >0x21 TIF> >0x0D TIF> >0x21 TIF> >0x0D TIF> >0x21 TIF> >0x0D TIF> >0x21 TIF> >0x0D TIF> >0x21 TIF> >0x0D TIF> >0x21 TIF> >0x0D TIF> >0x21 TIF> >0x0D TIF> >0x21 TIF> >0x0D TIF> >0x21 TIF> >0x0D TIF> >0x21 TIF> >0x0D TIF> >0x21 TIF> >0x0D TIF> >0x21 TIF> >0x0D TIF>
 >0x21 TIF> >0x0D TIF> >0x21 TIF> >0x0D TIF> >0x21 TIF> >0x0D TIF> >0x21 TIF> >0x0D TIF> >0x21 TIF> >0x0D TIF> >0x21 TIF> >0x0D TIF> >0x21 TIF> >0x0D TIF> >0x21 TIF> >0x0D TIF> >0x21 TIF> >0x0D TIF> >0x21 TIF> >0x0D TIF> >0x21 TIF> >0x0D TIF> >0x21 TIF> >0x0D TIF> >0x21 TIF> >0x0D TIF> >0x21 TIF> >0x0D TIF> >0x21 TIF> >0x0D TIF> >0x21 TIF> >0x0D TIF> >0x21 TIF> >0x0D TIF> >0x21 TIF> >0x0D TIF> >0x21 TIF> >0x0D TIF> >0x21 TIF> >0x0D TIF> >0x21 TIF> >0x0D TIF> >0x21 TIF> >0x0D TIF> >0x21 TIF> >0x0D TIF>
 >0x21 TIF> >0x0D TIF> >0x21 TIF> >0x0D TIF> >0x21 TIF> >0x0D TIF> >0x21 TIF> >0x0D TIF> >0x21 TIF> >0x0D TIF> >0x28 TIF> >0x0D TIF> >0x28 TIF> >0x0D TIF> >0x28 TIF> >0x0D TIF> >0x28 TIF> >0x0D TIF> >0x28 TIF> >0x0D TIF> >0x28 TIF> >0x0D TIF> >0x28 TIF> >0x0D TIF> >0x21 TIF> >0x0D TIF> >0x21 TIF> >0x0D TIF> >0x28 TIF> >0x108 TIF>Found SWD-DP with ID 0x2BA01477 >0x0D TIF> >0x21 TIF> >0x0D TIF> >0x28 TIF> >0x0D TIF> >0x28 TIF> >0x0D TIF> >0x21 TIF> >0x0D TIF> >0x21 TIF> >0x0D TIF> >0x28 TIF> >0x0D TIF>
 >0x21 TIF> >0x0D TIF> >0x21 TIF> >0x0D TIF> >0x21 TIF> >0x0D TIF> >0x21 TIF> >0x0D TIF> >0x21 TIF> >0x0D TIF> >0x28 TIF> >0x0D TIF> >0x28 TIF> >0x0D TIF> >0x21 TIF> >0x0D TIF> >0x21 TIF> >0x0D TIF> >0x28 TIF> >0x0D TIF> >0x21 TIF> >0x0D TIF> >0x21 TIF> >0x0D TIF> >0x28 TIF> >0x0D TIF> >0x28 TIF> >0x0D TIF> >0x28 TIF> >0x0D TIF> >0x21 TIF> >0x0D TIF> >0x21 TIF> >0x0D TIF> >0x28 TIF> >0x0D TIF> >0x28 TIF> >0x0D TIF> >0x28 TIF> >0x0D TIF> >0x21 TIF> >0x0D TIF> >0x21 TIF> >0x0D TIF> >0x21 TIF>TPIU fitted.
 >0x0D TIF> >0x28 TIF> >0x0D TIF> >0x21 TIF> >0x0D TIF> >0x21 TIF> >0x0D TIF> >0x28 TIF> >0x0D TIF> >0x21 TIF> >0x0D TIF> >0x21 TIF> >0x0D TIF> >0x28 TIF> >0x0D TIF> >0x21 TIF> >0x0D TIF> >0x21 TIF> >0x0D TIF> >0x28 TIF> >0x0D TIF> >0x21 TIF> >0x0D TIF> >0x21 TIF>FPUnit: 6 code (BP) slots and 2 literal slots >0x0D TIF> >0x28 TIF> >0x0D TIF> >0x21 TIF> >0x0D TIF> >0x21 TIF> >0x0D TIF> >0x28 TIF> >0x0D TIF> >0x21 TIF> >0x0D TIF> >0x21 TIF> >0x0D TIF> >0x28 TIF> >0x0D TIF> >0x21 TIF> >0x0D TIF> >0x21 TIF>
 >0x0D TIF> >0x28 TIF> >0x0D TIF> >0x21 TIF> >0x0D TIF> >0x21 TIF>Found Cortex-M4 r0p1, Little endian. -- CPU_ReadMem(2 bytes @ 0x40052000) -- CPU_ReadMem(8 bytes @ 0x20000000) -- CPU_WriteMem(8 bytes @ 0x20000000) -- CPU_WriteMem(8 bytes @ 0x20000000) -- CPU_ReadMem(16 bytes @ 0xE00FFFF0) -- Data:  0D 00 00 00 10 00 00 00 05 00 00 00 B1 00 00 00  returns 0x00 (0400ms, 0508ms total)
T1554 000:734 JLINK_ReadMem (0xE00FFFD0, 0x0020 Bytes, ...) -- CPU_ReadMem(32 bytes @ 0xE00FFFD0) -- Data:  04 00 00 00 00 00 00 00 00 00 00 00 00 00 00 00 ...  returns 0x00 (0004ms, 0512ms total)
T1554 000:738 JLINK_ReadMem (0xE00FF000, 0x0018 Bytes, ...) -- CPU_ReadMem(24 bytes @ 0xE00FF000) -- Data:  03 F0 F0 FF 03 20 F0 FF 03 30 F0 FF 03 10 F0 FF ...  returns 0x00 (0004ms, 0516ms total)
T1554 000:742 JLINK_ReadMemU32(0xE000ED00, 0x0001 Items, ...) -- CPU_ReadMem(4 bytes @ 0xE000ED00) -- Data:  41 C2 0F 41  returns 0x01 (0001ms, 0517ms total)
T1554 000:743 JLINK_ReadMemU32(0xE000EF40, 0x0001 Items, ...) -- CPU_ReadMem(4 bytes @ 0xE000EF40) -- Data:  00 00 00 00  returns 0x01 (0002ms, 0519ms total)
T1554 000:745 JLINK_ReadMemU32(0xE000EF44, 0x0001 Items, ...) -- CPU_ReadMem(4 bytes @ 0xE000EF44) -- Data:  00 00 00 00  returns 0x01 (0003ms, 0522ms total)
T1554 000:748 JLINK_SetResetType(JLINKARM_RESET_TYPE_NORMAL)  returns JLINKARM_RESET_TYPE_SOFT (0000ms, 0522ms total)
T1554 000:748 JLINK_Reset() -- CPU_WriteMem(4 bytes @ 0xE000EDF0) -- CPU_WriteMem(4 bytes @ 0xE000EDFC) >0x35 TIF> -- CPU_WriteMem(4 bytes @ 0xE000ED0C) -- CPU_ReadMem(4 bytes @ 0xE000EDF0) -- CPU_ReadMem(4 bytes @ 0xE000EDF0) -- CPU_WriteMem(4 bytes @ 0xE000EDF0) -- CPU_WriteMem(4 bytes @ 0xE000EDFC) -- CPU is running -- CPU_ReadMem(4 bytes @ 0xE000EDF0) -- CPU_ReadMem(8 bytes @ 0x20000000) -- CPU_WriteMem(8 bytes @ 0x20000000) -- CPU_WriteMem(8 bytes @ 0x20000000) -- CPU_WriteMem(4 bytes @ 0xE0002000)
 (0078ms, 0600ms total)
T1554 000:826 JLINK_Halt()  returns 0x00 (0000ms, 0600ms total)
T1554 000:826 JLINK_IsHalted() -- MA0 is in flash -- Unmirror addr 0x0000064C  returns TRUE (0000ms, 0600ms total)
T1554 000:826 JLINK_ReadMemU32(0xE000EDF0, 0x0001 Items, ...) -- CPU_ReadMem(4 bytes @ 0xE000EDF0) -- Data:  03 00 03 00  returns 0x01 (0002ms, 0602ms total)
T1554 000:828 JLINK_WriteU32(0xE000EDF0, 0xA05F0003) -- CPU_WriteMem(4 bytes @ 0xE000EDF0) -- Invalidate MA0 status  returns 0x00 (0002ms, 0604ms total)
T1554 000:830 JLINK_WriteU32(0xE000EDFC, 0x01000000) -- CPU_WriteMem(4 bytes @ 0xE000EDFC)  returns 0x00 (0002ms, 0606ms total)
T1554 000:855 JLINK_GetHWStatus(...)  returns 0x00 (0000ms, 0606ms total)
T1554 000:863 JLINK_GetNumBPUnits(Type = 0xFFFFFF00)  returns 0x06 (0001ms, 0607ms total)
T1554 000:864 JLINK_GetNumBPUnits(Type = 0xF0)  returns 0x2000 (0000ms, 0607ms total)
T1554 000:864 JLINK_GetNumWPUnits()  returns 0x04 (0000ms, 0607ms total)
T1554 000:872 JLINK_GetSpeed()  returns 0xC8 (0000ms, 0607ms total)
T1554 000:878 JLINK_ReadMemU32(0xE000E004, 0x0001 Items, ...) -- CPU_ReadMem(4 bytes @ 0xE000E004) -- Data:  01 00 00 00  returns 0x01 (0003ms, 0610ms total)
T1554 000:881 JLINK_ReadMemU32(0xE000E004, 0x0001 Items, ...) -- CPU_ReadMem(4 bytes @ 0xE000E004) -- Data:  01 00 00 00  returns 0x01 (0001ms, 0611ms total)
T1554 000:882 JLINK_WriteMem(0xE0001000, 0x001C Bytes, ...) -- Data:  01 00 00 00 00 00 00 00 00 00 00 00 00 00 00 00 ... -- CPU_WriteMem(28 bytes @ 0xE0001000)  returns 0x1C (0003ms, 0614ms total)
T1554 000:885 JLINK_ReadMem (0xE0001000, 0x001C Bytes, ...) -- CPU_ReadMem(28 bytes @ 0xE0001000) -- Data:  01 00 00 40 00 00 00 00 00 00 00 00 00 00 00 00 ...  returns 0x00 (0004ms, 0618ms total)
T1554 000:889 JLINK_Halt()  returns 0x00 (0000ms, 0618ms total)
T1554 000:889 JLINK_IsHalted() -- MA0 is in flash -- Unmirror addr 0x0000064C  returns TRUE (0000ms, 0618ms total)
T1554 000:891 JLINK_WriteMem(0x20000000, 0x0640 Bytes, ...) -- Data:  00 BE 0A E0 0D 78 2D 06 68 40 08 24 40 00 00 D3 ... -- CPU_WriteMem(1600 bytes @ 0x20000000)  returns 0x640 (0101ms, 0719ms total)
T1554 000:992 JLINK_WriteReg(R0, 0x00000000)  returns 0x00 (0000ms, 0719ms total)
T1554 000:992 JLINK_WriteReg(R1, 0x007A1200)  returns 0x00 (0001ms, 0720ms total)
T1554 000:993 JLINK_WriteReg(R2, 0x00000001)  returns 0x00 (0000ms, 0720ms total)
T1554 000:993 JLINK_WriteReg(R3, 0x00000000)  returns 0x00 (0000ms, 0720ms total)
T1554 000:993 JLINK_WriteReg(R4, 0x00000000)  returns 0x00 (0000ms, 0720ms total)
T1554 000:993 JLINK_WriteReg(R5, 0x00000000)  returns 0x00 (0000ms, 0720ms total)
T1554 000:993 JLINK_WriteReg(R6, 0x00000000)  returns 0x00 (0000ms, 0720ms total)
T1554 000:993 JLINK_WriteReg(R7, 0x00000000)  returns 0x00 (0000ms, 0720ms total)
T1554 000:993 JLINK_WriteReg(R8, 0x00000000)  returns 0x00 (0000ms, 0720ms total)
T1554 000:993 JLINK_WriteReg(R9, 0x20000638)  returns 0x00 (0000ms, 0720ms total)
T1554 000:993 JLINK_WriteReg(R10, 0x00000000)  returns 0x00 (0000ms, 0720ms total)
T1554 000:993 JLINK_WriteReg(R11, 0x00000000)  returns 0x00 (0000ms, 0720ms total)
T1554 000:993 JLINK_WriteReg(R12, 0x00000000)  returns 0x00 (0000ms, 0720ms total)
T1554 000:993 JLINK_WriteReg(R13, 0x20000800)  returns 0x00 (0000ms, 0720ms total)
T1554 000:993 JLINK_WriteReg(R14, 0x20000001)  returns 0x00 (0000ms, 0720ms total)
T1554 000:993 JLINK_WriteReg(R15, 0x20000020)  returns 0x00 (0000ms, 0720ms total)
T1554 000:993 JLINK_WriteReg(XPSR, 0x01000000)  returns 0x00 (0000ms, 0720ms total)
T1554 000:993 JLINK_WriteReg(MSP, 0x20000800)  returns 0x00 (0000ms, 0720ms total)
T1554 000:993 JLINK_WriteReg(PSP, 0x20000800)  returns 0x00 (0000ms, 0720ms total)
T1554 000:993 JLINK_WriteReg(CFBP, 0x00000000)  returns 0x00 (0001ms, 0721ms total)
T1554 000:994 JLINK_SetBPEx(Addr = 0x20000000, Type = 0xFFFFFFF2) -- CPU_ReadMem(2 bytes @ 0x20000000)  returns 0x00000001 (0002ms, 0723ms total)
T1554 000:996 JLINK_Go() -- CPU_WriteMem(2 bytes @ 0x20000000) -- Invalidate MA0 status -- CPU_WriteMem(4 bytes @ 0xE0002008) -- CPU_WriteMem(4 bytes @ 0xE000200C) -- CPU_WriteMem(4 bytes @ 0xE0002010) -- CPU_WriteMem(4 bytes @ 0xE0002014) -- CPU_WriteMem(4 bytes @ 0xE0002018) -- CPU_WriteMem(4 bytes @ 0xE000201C) (0022ms, 0745ms total)
T1554 001:018 JLINK_IsHalted() -- CPU_ReadMem(2 bytes @ 0x20000000)  returns TRUE (0022ms, 0767ms total)
T1554 001:040 JLINK_ReadReg(R15)  returns 0x20000000 (0000ms, 0745ms total)
T1554 001:040 JLINK_ClrBPEx(BPHandle = 0x00000001)  returns 0x00 (0000ms, 0745ms total)
T1554 001:040 JLINK_ReadReg(R0)  returns 0x00000000 (0000ms, 0745ms total)
T1554 001:040 JLINK_WriteReg(R0, 0x00000000)  returns 0x00 (0000ms, 0745ms total)
T1554 001:040 JLINK_WriteReg(R1, 0x007A1200)  returns 0x00 (0000ms, 0745ms total)
T1554 001:040 JLINK_WriteReg(R2, 0x00000001)  returns 0x00 (0000ms, 0745ms total)
T1554 001:041 JLINK_WriteReg(R3, 0x00000000)  returns 0x00 (0000ms, 0745ms total)
T1554 001:041 JLINK_WriteReg(R4, 0x00000000)  returns 0x00 (0000ms, 0745ms total)
T1554 001:041 JLINK_WriteReg(R5, 0x00000000)  returns 0x00 (0000ms, 0745ms total)
T1554 001:041 JLINK_WriteReg(R6, 0x00000000)  returns 0x00 (0000ms, 0745ms total)
T1554 001:041 JLINK_WriteReg(R7, 0x00000000)  returns 0x00 (0000ms, 0745ms total)
T1554 001:041 JLINK_WriteReg(R8, 0x00000000)  returns 0x00 (0000ms, 0745ms total)
T1554 001:041 JLINK_WriteReg(R9, 0x20000638)  returns 0x00 (0000ms, 0745ms total)
T1554 001:041 JLINK_WriteReg(R10, 0x00000000)  returns 0x00 (0000ms, 0745ms total)
T1554 001:041 JLINK_WriteReg(R11, 0x00000000)  returns 0x00 (0000ms, 0745ms total)
T1554 001:041 JLINK_WriteReg(R12, 0x00000000)  returns 0x00 (0000ms, 0745ms total)
T1554 001:041 JLINK_WriteReg(R13, 0x20000800)  returns 0x00 (0000ms, 0745ms total)
T1554 001:041 JLINK_WriteReg(R14, 0x20000001)  returns 0x00 (0000ms, 0745ms total)
T1554 001:041 JLINK_WriteReg(R15, 0x20000096)  returns 0x00 (0000ms, 0745ms total)
T1554 001:041 JLINK_WriteReg(XPSR, 0x01000000)  returns 0x00 (0000ms, 0745ms total)
T1554 001:041 JLINK_WriteReg(MSP, 0x20000800)  returns 0x00 (0000ms, 0745ms total)
T1554 001:041 JLINK_WriteReg(PSP, 0x20000800)  returns 0x00 (0000ms, 0745ms total)
T1554 001:041 JLINK_WriteReg(CFBP, 0x00000000)  returns 0x00 (0000ms, 0745ms total)
T1554 001:041 JLINK_SetBPEx(Addr = 0x20000000, Type = 0xFFFFFFF2)  returns 0x00000002 (0000ms, 0745ms total)
T1554 001:042 JLINK_Go() (0007ms, 0752ms total)
T1554 001:049 JLINK_IsHalted()  returns FALSE (0002ms, 0754ms total)
T1554 001:164 JLINK_IsHalted() -- CPU_ReadMem(2 bytes @ 0x20000000)  returns TRUE (0020ms, 0772ms total)
T1554 001:184 JLINK_ReadReg(R15)  returns 0x20000000 (0000ms, 0752ms total)
T1554 001:184 JLINK_ClrBPEx(BPHandle = 0x00000002)  returns 0x00 (0000ms, 0752ms total)
T1554 001:184 JLINK_ReadReg(R0)  returns 0x00000000 (0000ms, 0752ms total)
T1554 001:235 JLINK_WriteReg(R0, 0x00000001)  returns 0x00 (0000ms, 0752ms total)
T1554 001:235 JLINK_WriteReg(R1, 0x007A1200)  returns 0x00 (0000ms, 0752ms total)
T1554 001:235 JLINK_WriteReg(R2, 0x00000001)  returns 0x00 (0000ms, 0752ms total)
T1554 001:235 JLINK_WriteReg(R3, 0x00000000)  returns 0x00 (0000ms, 0752ms total)
T1554 001:235 JLINK_WriteReg(R4, 0x00000000)  returns 0x00 (0000ms, 0752ms total)
T1554 001:235 JLINK_WriteReg(R5, 0x00000000)  returns 0x00 (0000ms, 0752ms total)
T1554 001:235 JLINK_WriteReg(R6, 0x00000000)  returns 0x00 (0000ms, 0752ms total)
T1554 001:235 JLINK_WriteReg(R7, 0x00000000)  returns 0x00 (0000ms, 0752ms total)
T1554 001:235 JLINK_WriteReg(R8, 0x00000000)  returns 0x00 (0000ms, 0752ms total)
T1554 001:235 JLINK_WriteReg(R9, 0x20000638)  returns 0x00 (0000ms, 0752ms total)
T1554 001:235 JLINK_WriteReg(R10, 0x00000000)  returns 0x00 (0000ms, 0752ms total)
T1554 001:235 JLINK_WriteReg(R11, 0x00000000)  returns 0x00 (0000ms, 0752ms total)
T1554 001:235 JLINK_WriteReg(R12, 0x00000000)  returns 0x00 (0000ms, 0752ms total)
T1554 001:235 JLINK_WriteReg(R13, 0x20000800)  returns 0x00 (0000ms, 0752ms total)
T1554 001:235 JLINK_WriteReg(R14, 0x20000001)  returns 0x00 (0000ms, 0752ms total)
T1554 001:235 JLINK_WriteReg(R15, 0x20000072)  returns 0x00 (0000ms, 0752ms total)
T1554 001:235 JLINK_WriteReg(XPSR, 0x01000000)  returns 0x00 (0000ms, 0752ms total)
T1554 001:235 JLINK_WriteReg(MSP, 0x20000800)  returns 0x00 (0000ms, 0752ms total)
T1554 001:235 JLINK_WriteReg(PSP, 0x20000800)  returns 0x00 (0000ms, 0752ms total)
T1554 001:235 JLINK_WriteReg(CFBP, 0x00000000)  returns 0x00 (0000ms, 0752ms total)
T1554 001:235 JLINK_SetBPEx(Addr = 0x20000000, Type = 0xFFFFFFF2)  returns 0x00000003 (0000ms, 0752ms total)
T1554 001:235 JLINK_Go() (0008ms, 0760ms total)
T1554 001:243 JLINK_IsHalted() -- CPU_ReadMem(2 bytes @ 0x20000000)  returns TRUE (0020ms, 0780ms total)
T1554 001:263 JLINK_ReadReg(R15)  returns 0x20000000 (0000ms, 0760ms total)
T1554 001:263 JLINK_ClrBPEx(BPHandle = 0x00000003)  returns 0x00 (0000ms, 0760ms total)
T1554 001:263 JLINK_ReadReg(R0)  returns 0x00000000 (0000ms, 0760ms total)
T1554 001:267 JLINK_WriteMem(0x20000000, 0x0640 Bytes, ...) -- Data:  00 BE 0A E0 0D 78 2D 06 68 40 08 24 40 00 00 D3 ... -- CPU_WriteMem(1600 bytes @ 0x20000000)  returns 0x640 (0102ms, 0862ms total)
T1554 001:369 JLINK_WriteReg(R0, 0x00000000)  returns 0x00 (0000ms, 0862ms total)
T1554 001:369 JLINK_WriteReg(R1, 0x007A1200)  returns 0x00 (0000ms, 0862ms total)
T1554 001:369 JLINK_WriteReg(R2, 0x00000002)  returns 0x00 (0000ms, 0862ms total)
T1554 001:369 JLINK_WriteReg(R3, 0x00000000)  returns 0x00 (0000ms, 0862ms total)
T1554 001:369 JLINK_WriteReg(R4, 0x00000000)  returns 0x00 (0000ms, 0862ms total)
T1554 001:369 JLINK_WriteReg(R5, 0x00000000)  returns 0x00 (0000ms, 0862ms total)
T1554 001:369 JLINK_WriteReg(R6, 0x00000000)  returns 0x00 (0000ms, 0862ms total)
T1554 001:369 JLINK_WriteReg(R7, 0x00000000)  returns 0x00 (0000ms, 0862ms total)
T1554 001:369 JLINK_WriteReg(R8, 0x00000000)  returns 0x00 (0000ms, 0862ms total)
T1554 001:369 JLINK_WriteReg(R9, 0x20000638)  returns 0x00 (0000ms, 0862ms total)
T1554 001:369 JLINK_WriteReg(R10, 0x00000000)  returns 0x00 (0000ms, 0862ms total)
T1554 001:369 JLINK_WriteReg(R11, 0x00000000)  returns 0x00 (0000ms, 0862ms total)
T1554 001:370 JLINK_WriteReg(R12, 0x00000000)  returns 0x00 (0000ms, 0863ms total)
T1554 001:370 JLINK_WriteReg(R13, 0x20000800)  returns 0x00 (0000ms, 0863ms total)
T1554 001:370 JLINK_WriteReg(R14, 0x20000001)  returns 0x00 (0000ms, 0863ms total)
T1554 001:370 JLINK_WriteReg(R15, 0x20000020)  returns 0x00 (0000ms, 0863ms total)
T1554 001:370 JLINK_WriteReg(XPSR, 0x01000000)  returns 0x00 (0000ms, 0863ms total)
T1554 001:370 JLINK_WriteReg(MSP, 0x20000800)  returns 0x00 (0000ms, 0863ms total)
T1554 001:370 JLINK_WriteReg(PSP, 0x20000800)  returns 0x00 (0000ms, 0863ms total)
T1554 001:370 JLINK_WriteReg(CFBP, 0x00000000)  returns 0x00 (0000ms, 0863ms total)
T1554 001:370 JLINK_SetBPEx(Addr = 0x20000000, Type = 0xFFFFFFF2) -- CPU_ReadMem(2 bytes @ 0x20000000)  returns 0x00000004 (0003ms, 0866ms total)
T1554 001:373 JLINK_Go() -- CPU_WriteMem(2 bytes @ 0x20000000) (0007ms, 0873ms total)
T1554 001:380 JLINK_IsHalted() -- CPU_ReadMem(2 bytes @ 0x20000000)  returns TRUE (0021ms, 0894ms total)
T1554 001:401 JLINK_ReadReg(R15)  returns 0x20000000 (0000ms, 0873ms total)
T1554 001:401 JLINK_ClrBPEx(BPHandle = 0x00000004)  returns 0x00 (0000ms, 0873ms total)
T1554 001:401 JLINK_ReadReg(R0)  returns 0x00000000 (0000ms, 0873ms total)
T1554 001:401 JLINK_WriteMem(0x20000668, 0x0100 Bytes, ...) -- Data:  60 E4 FF 1F 4D 06 00 00 55 06 00 00 57 06 00 00 ... -- CPU_WriteMem(256 bytes @ 0x20000668)  returns 0x100 (0019ms, 0892ms total)
T1554 001:420 JLINK_WriteReg(R0, 0x00000000)  returns 0x00 (0000ms, 0892ms total)
T1554 001:420 JLINK_WriteReg(R1, 0x00000100)  returns 0x00 (0000ms, 0892ms total)
T1554 001:420 JLINK_WriteReg(R2, 0x20000668)  returns 0x00 (0000ms, 0892ms total)
T1554 001:420 JLINK_WriteReg(R3, 0x00000000)  returns 0x00 (0000ms, 0892ms total)
T1554 001:420 JLINK_WriteReg(R4, 0x00000000)  returns 0x00 (0000ms, 0892ms total)
T1554 001:420 JLINK_WriteReg(R5, 0x00000000)  returns 0x00 (0000ms, 0892ms total)
T1554 001:420 JLINK_WriteReg(R6, 0x00000000)  returns 0x00 (0000ms, 0892ms total)
T1554 001:420 JLINK_WriteReg(R7, 0x00000000)  returns 0x00 (0000ms, 0892ms total)
T1554 001:420 JLINK_WriteReg(R8, 0x00000000)  returns 0x00 (0000ms, 0892ms total)
T1554 001:420 JLINK_WriteReg(R9, 0x20000638)  returns 0x00 (0000ms, 0892ms total)
T1554 001:420 JLINK_WriteReg(R10, 0x00000000)  returns 0x00 (0000ms, 0892ms total)
T1554 001:420 JLINK_WriteReg(R11, 0x00000000)  returns 0x00 (0000ms, 0892ms total)
T1554 001:420 JLINK_WriteReg(R12, 0x00000000)  returns 0x00 (0000ms, 0892ms total)
T1554 001:420 JLINK_WriteReg(R13, 0x20000800)  returns 0x00 (0000ms, 0892ms total)
T1554 001:420 JLINK_WriteReg(R14, 0x20000001)  returns 0x00 (0000ms, 0892ms total)
T1554 001:420 JLINK_WriteReg(R15, 0x200000E8)  returns 0x00 (0000ms, 0892ms total)
T1554 001:420 JLINK_WriteReg(XPSR, 0x01000000)  returns 0x00 (0001ms, 0893ms total)
T1554 001:421 JLINK_WriteReg(MSP, 0x20000800)  returns 0x00 (0000ms, 0893ms total)
T1554 001:421 JLINK_WriteReg(PSP, 0x20000800)  returns 0x00 (0000ms, 0893ms total)
T1554 001:421 JLINK_WriteReg(CFBP, 0x00000000)  returns 0x00 (0000ms, 0893ms total)
T1554 001:421 JLINK_SetBPEx(Addr = 0x20000000, Type = 0xFFFFFFF2)  returns 0x00000005 (0000ms, 0893ms total)
T1554 001:421 JLINK_Go() (0008ms, 0901ms total)
T1554 001:429 JLINK_IsHalted()  returns FALSE (0002ms, 0903ms total)
T1554 001:483 JLINK_IsHalted() -- CPU_ReadMem(2 bytes @ 0x20000000)  returns TRUE (0021ms, 0922ms total)
T1554 001:504 JLINK_ReadReg(R15)  returns 0x20000000 (0000ms, 0901ms total)
T1554 001:504 JLINK_ClrBPEx(BPHandle = 0x00000005)  returns 0x00 (0000ms, 0901ms total)
T1554 001:504 JLINK_ReadReg(R0)  returns 0x00000000 (0000ms, 0901ms total)
T1554 001:504 JLINK_WriteMem(0x20000668, 0x0100 Bytes, ...) -- Data:  67 06 00 00 67 06 00 00 67 06 00 00 67 06 00 00 ... -- CPU_WriteMem(256 bytes @ 0x20000668)  returns 0x100 (0019ms, 0920ms total)
T1554 001:523 JLINK_WriteReg(R0, 0x00000100)  returns 0x00 (0000ms, 0920ms total)
T1554 001:523 JLINK_WriteReg(R1, 0x00000100)  returns 0x00 (0000ms, 0920ms total)
T1554 001:523 JLINK_WriteReg(R2, 0x20000668)  returns 0x00 (0000ms, 0920ms total)
T1554 001:523 JLINK_WriteReg(R3, 0x00000000)  returns 0x00 (0000ms, 0920ms total)
T1554 001:523 JLINK_WriteReg(R4, 0x00000000)  returns 0x00 (0000ms, 0920ms total)
T1554 001:523 JLINK_WriteReg(R5, 0x00000000)  returns 0x00 (0000ms, 0920ms total)
T1554 001:523 JLINK_WriteReg(R6, 0x00000000)  returns 0x00 (0000ms, 0920ms total)
T1554 001:523 JLINK_WriteReg(R7, 0x00000000)  returns 0x00 (0000ms, 0920ms total)
T1554 001:523 JLINK_WriteReg(R8, 0x00000000)  returns 0x00 (0000ms, 0920ms total)
T1554 001:523 JLINK_WriteReg(R9, 0x20000638)  returns 0x00 (0000ms, 0920ms total)
T1554 001:523 JLINK_WriteReg(R10, 0x00000000)  returns 0x00 (0000ms, 0920ms total)
T1554 001:523 JLINK_WriteReg(R11, 0x00000000)  returns 0x00 (0000ms, 0920ms total)
T1554 001:523 JLINK_WriteReg(R12, 0x00000000)  returns 0x00 (0000ms, 0920ms total)
T1554 001:523 JLINK_WriteReg(R13, 0x20000800)  returns 0x00 (0000ms, 0920ms total)
T1554 001:523 JLINK_WriteReg(R14, 0x20000001)  returns 0x00 (0001ms, 0921ms total)
T1554 001:524 JLINK_WriteReg(R15, 0x200000E8)  returns 0x00 (0000ms, 0921ms total)
T1554 001:524 JLINK_WriteReg(XPSR, 0x01000000)  returns 0x00 (0000ms, 0921ms total)
T1554 001:524 JLINK_WriteReg(MSP, 0x20000800)  returns 0x00 (0000ms, 0921ms total)
T1554 001:524 JLINK_WriteReg(PSP, 0x20000800)  returns 0x00 (0000ms, 0921ms total)
T1554 001:524 JLINK_WriteReg(CFBP, 0x00000000)  returns 0x00 (0000ms, 0921ms total)
T1554 001:524 JLINK_SetBPEx(Addr = 0x20000000, Type = 0xFFFFFFF2)  returns 0x00000006 (0000ms, 0921ms total)
T1554 001:524 JLINK_Go() (0008ms, 0929ms total)
T1554 001:532 JLINK_IsHalted()  returns FALSE (0002ms, 0931ms total)
T1554 001:578 JLINK_IsHalted() -- CPU_ReadMem(2 bytes @ 0x20000000)  returns TRUE (0020ms, 0949ms total)
T1554 001:598 JLINK_ReadReg(R15)  returns 0x20000000 (0000ms, 0929ms total)
T1554 001:598 JLINK_ClrBPEx(BPHandle = 0x00000006)  returns 0x00 (0000ms, 0929ms total)
T1554 001:598 JLINK_ReadReg(R0)  returns 0x00000000 (0000ms, 0929ms total)
T1554 001:598 JLINK_WriteMem(0x20000668, 0x0100 Bytes, ...) -- Data:  67 06 00 00 67 06 00 00 67 06 00 00 67 06 00 00 ... -- CPU_WriteMem(256 bytes @ 0x20000668)  returns 0x100 (0018ms, 0947ms total)
T1554 001:616 JLINK_WriteReg(R0, 0x00000200)  returns 0x00 (0000ms, 0947ms total)
T1554 001:616 JLINK_WriteReg(R1, 0x00000100)  returns 0x00 (0000ms, 0947ms total)
T1554 001:616 JLINK_WriteReg(R2, 0x20000668)  returns 0x00 (0001ms, 0948ms total)
T1554 001:617 JLINK_WriteReg(R3, 0x00000000)  returns 0x00 (0000ms, 0948ms total)
T1554 001:617 JLINK_WriteReg(R4, 0x00000000)  returns 0x00 (0000ms, 0948ms total)
T1554 001:617 JLINK_WriteReg(R5, 0x00000000)  returns 0x00 (0000ms, 0948ms total)
T1554 001:617 JLINK_WriteReg(R6, 0x00000000)  returns 0x00 (0000ms, 0948ms total)
T1554 001:617 JLINK_WriteReg(R7, 0x00000000)  returns 0x00 (0000ms, 0948ms total)
T1554 001:617 JLINK_WriteReg(R8, 0x00000000)  returns 0x00 (0000ms, 0948ms total)
T1554 001:617 JLINK_WriteReg(R9, 0x20000638)  returns 0x00 (0000ms, 0948ms total)
T1554 001:617 JLINK_WriteReg(R10, 0x00000000)  returns 0x00 (0000ms, 0948ms total)
T1554 001:617 JLINK_WriteReg(R11, 0x00000000)  returns 0x00 (0000ms, 0948ms total)
T1554 001:617 JLINK_WriteReg(R12, 0x00000000)  returns 0x00 (0000ms, 0948ms total)
T1554 001:617 JLINK_WriteReg(R13, 0x20000800)  returns 0x00 (0000ms, 0948ms total)
T1554 001:617 JLINK_WriteReg(R14, 0x20000001)  returns 0x00 (0000ms, 0948ms total)
T1554 001:617 JLINK_WriteReg(R15, 0x200000E8)  returns 0x00 (0000ms, 0948ms total)
T1554 001:617 JLINK_WriteReg(XPSR, 0x01000000)  returns 0x00 (0000ms, 0948ms total)
T1554 001:617 JLINK_WriteReg(MSP, 0x20000800)  returns 0x00 (0000ms, 0948ms total)
T1554 001:617 JLINK_WriteReg(PSP, 0x20000800)  returns 0x00 (0000ms, 0948ms total)
T1554 001:617 JLINK_WriteReg(CFBP, 0x00000000)  returns 0x00 (0000ms, 0948ms total)
T1554 001:617 JLINK_SetBPEx(Addr = 0x20000000, Type = 0xFFFFFFF2)  returns 0x00000007 (0000ms, 0948ms total)
T1554 001:617 JLINK_Go() (0008ms, 0956ms total)
T1554 001:625 JLINK_IsHalted()  returns FALSE (0001ms, 0957ms total)
T1554 001:636 JLINK_IsHalted() -- CPU_ReadMem(2 bytes @ 0x20000000)  returns TRUE (0021ms, 0977ms total)
T1554 001:657 JLINK_ReadReg(R15)  returns 0x20000000 (0000ms, 0956ms total)
T1554 001:657 JLINK_ClrBPEx(BPHandle = 0x00000007)  returns 0x00 (0000ms, 0956ms total)
T1554 001:657 JLINK_ReadReg(R0)  returns 0x00000000 (0000ms, 0956ms total)
T1554 001:657 JLINK_WriteMem(0x20000668, 0x0100 Bytes, ...) -- Data:  67 06 00 00 67 06 00 00 67 06 00 00 67 06 00 00 ... -- CPU_WriteMem(256 bytes @ 0x20000668)  returns 0x100 (0017ms, 0973ms total)
T1554 001:674 JLINK_WriteReg(R0, 0x00000300)  returns 0x00 (0000ms, 0973ms total)
T1554 001:674 JLINK_WriteReg(R1, 0x00000100)  returns 0x00 (0000ms, 0973ms total)
T1554 001:674 JLINK_WriteReg(R2, 0x20000668)  returns 0x00 (0001ms, 0974ms total)
T1554 001:675 JLINK_WriteReg(R3, 0x00000000)  returns 0x00 (0000ms, 0974ms total)
T1554 001:675 JLINK_WriteReg(R4, 0x00000000)  returns 0x00 (0000ms, 0974ms total)
T1554 001:675 JLINK_WriteReg(R5, 0x00000000)  returns 0x00 (0000ms, 0974ms total)
T1554 001:675 JLINK_WriteReg(R6, 0x00000000)  returns 0x00 (0000ms, 0974ms total)
T1554 001:675 JLINK_WriteReg(R7, 0x00000000)  returns 0x00 (0000ms, 0974ms total)
T1554 001:675 JLINK_WriteReg(R8, 0x00000000)  returns 0x00 (0000ms, 0974ms total)
T1554 001:675 JLINK_WriteReg(R9, 0x20000638)  returns 0x00 (0000ms, 0974ms total)
T1554 001:675 JLINK_WriteReg(R10, 0x00000000)  returns 0x00 (0000ms, 0974ms total)
T1554 001:675 JLINK_WriteReg(R11, 0x00000000)  returns 0x00 (0000ms, 0974ms total)
T1554 001:675 JLINK_WriteReg(R12, 0x00000000)  returns 0x00 (0000ms, 0974ms total)
T1554 001:675 JLINK_WriteReg(R13, 0x20000800)  returns 0x00 (0000ms, 0974ms total)
T1554 001:675 JLINK_WriteReg(R14, 0x20000001)  returns 0x00 (0000ms, 0974ms total)
T1554 001:675 JLINK_WriteReg(R15, 0x200000E8)  returns 0x00 (0000ms, 0974ms total)
T1554 001:675 JLINK_WriteReg(XPSR, 0x01000000)  returns 0x00 (0000ms, 0974ms total)
T1554 001:675 JLINK_WriteReg(MSP, 0x20000800)  returns 0x00 (0000ms, 0974ms total)
T1554 001:675 JLINK_WriteReg(PSP, 0x20000800)  returns 0x00 (0000ms, 0974ms total)
T1554 001:675 JLINK_WriteReg(CFBP, 0x00000000)  returns 0x00 (0000ms, 0974ms total)
T1554 001:675 JLINK_SetBPEx(Addr = 0x20000000, Type = 0xFFFFFFF2)  returns 0x00000008 (0000ms, 0974ms total)
T1554 001:675 JLINK_Go() (0009ms, 0983ms total)
T1554 001:684 JLINK_IsHalted()  returns FALSE (0002ms, 0985ms total)
T1554 001:707 JLINK_IsHalted() -- CPU_ReadMem(2 bytes @ 0x20000000)  returns TRUE (0020ms, 1003ms total)
T1554 001:727 JLINK_ReadReg(R15)  returns 0x20000000 (0000ms, 0983ms total)
T1554 001:727 JLINK_ClrBPEx(BPHandle = 0x00000008)  returns 0x00 (0000ms, 0983ms total)
T1554 001:727 JLINK_ReadReg(R0)  returns 0x00000000 (0000ms, 0983ms total)
T1554 001:727 JLINK_WriteMem(0x20000668, 0x0100 Bytes, ...) -- Data:  FF FF FF FF FF FF FF FF FF FF FF FF FE FF FF FF ... -- CPU_WriteMem(256 bytes @ 0x20000668)  returns 0x100 (0018ms, 1001ms total)
T1554 001:745 JLINK_WriteReg(R0, 0x00000400)  returns 0x00 (0000ms, 1001ms total)
T1554 001:745 JLINK_WriteReg(R1, 0x00000100)  returns 0x00 (0000ms, 1001ms total)
T1554 001:745 JLINK_WriteReg(R2, 0x20000668)  returns 0x00 (0000ms, 1001ms total)
T1554 001:745 JLINK_WriteReg(R3, 0x00000000)  returns 0x00 (0000ms, 1001ms total)
T1554 001:745 JLINK_WriteReg(R4, 0x00000000)  returns 0x00 (0000ms, 1001ms total)
T1554 001:745 JLINK_WriteReg(R5, 0x00000000)  returns 0x00 (0000ms, 1001ms total)
T1554 001:745 JLINK_WriteReg(R6, 0x00000000)  returns 0x00 (0000ms, 1001ms total)
T1554 001:745 JLINK_WriteReg(R7, 0x00000000)  returns 0x00 (0000ms, 1001ms total)
T1554 001:745 JLINK_WriteReg(R8, 0x00000000)  returns 0x00 (0000ms, 1001ms total)
T1554 001:745 JLINK_WriteReg(R9, 0x20000638)  returns 0x00 (0000ms, 1001ms total)
T1554 001:745 JLINK_WriteReg(R10, 0x00000000)  returns 0x00 (0000ms, 1001ms total)
T1554 001:745 JLINK_WriteReg(R11, 0x00000000)  returns 0x00 (0000ms, 1001ms total)
T1554 001:745 JLINK_WriteReg(R12, 0x00000000)  returns 0x00 (0000ms, 1001ms total)
T1554 001:745 JLINK_WriteReg(R13, 0x20000800)  returns 0x00 (0000ms, 1001ms total)
T1554 001:745 JLINK_WriteReg(R14, 0x20000001)  returns 0x00 (0000ms, 1001ms total)
T1554 001:745 JLINK_WriteReg(R15, 0x200000E8)  returns 0x00 (0000ms, 1001ms total)
T1554 001:745 JLINK_WriteReg(XPSR, 0x01000000)  returns 0x00 (0000ms, 1001ms total)
T1554 001:745 JLINK_WriteReg(MSP, 0x20000800)  returns 0x00 (0000ms, 1001ms total)
T1554 001:745 JLINK_WriteReg(PSP, 0x20000800)  returns 0x00 (0000ms, 1001ms total)
T1554 001:745 JLINK_WriteReg(CFBP, 0x00000000)  returns 0x00 (0000ms, 1001ms total)
T1554 001:745 JLINK_SetBPEx(Addr = 0x20000000, Type = 0xFFFFFFF2)  returns 0x00000009 (0000ms, 1001ms total)
T1554 001:745 JLINK_Go() (0009ms, 1010ms total)
T1554 001:754 JLINK_IsHalted()  returns FALSE (0002ms, 1012ms total)
T1554 001:795 JLINK_IsHalted() -- CPU_ReadMem(2 bytes @ 0x20000000)  returns TRUE (0021ms, 1031ms total)
T1554 001:816 JLINK_ReadReg(R15)  returns 0x20000000 (0000ms, 1010ms total)
T1554 001:816 JLINK_ClrBPEx(BPHandle = 0x00000009)  returns 0x00 (0000ms, 1010ms total)
T1554 001:816 JLINK_ReadReg(R0)  returns 0x00000000 (0000ms, 1010ms total)
T1554 001:816 JLINK_WriteMem(0x20000668, 0x0100 Bytes, ...) -- Data:  B0 FB F1 F0 4B 4A 52 78 12 F0 30 0F 03 D0 40 09 ... -- CPU_WriteMem(256 bytes @ 0x20000668)  returns 0x100 (0018ms, 1028ms total)
T1554 001:834 JLINK_WriteReg(R0, 0x00000500)  returns 0x00 (0000ms, 1028ms total)
T1554 001:834 JLINK_WriteReg(R1, 0x00000100)  returns 0x00 (0000ms, 1028ms total)
T1554 001:834 JLINK_WriteReg(R2, 0x20000668)  returns 0x00 (0000ms, 1028ms total)
T1554 001:834 JLINK_WriteReg(R3, 0x00000000)  returns 0x00 (0000ms, 1028ms total)
T1554 001:834 JLINK_WriteReg(R4, 0x00000000)  returns 0x00 (0000ms, 1028ms total)
T1554 001:834 JLINK_WriteReg(R5, 0x00000000)  returns 0x00 (0000ms, 1028ms total)
T1554 001:834 JLINK_WriteReg(R6, 0x00000000)  returns 0x00 (0000ms, 1028ms total)
T1554 001:834 JLINK_WriteReg(R7, 0x00000000)  returns 0x00 (0000ms, 1028ms total)
T1554 001:834 JLINK_WriteReg(R8, 0x00000000)  returns 0x00 (0000ms, 1028ms total)
T1554 001:834 JLINK_WriteReg(R9, 0x20000638)  returns 0x00 (0000ms, 1028ms total)
T1554 001:834 JLINK_WriteReg(R10, 0x00000000)  returns 0x00 (0000ms, 1028ms total)
T1554 001:834 JLINK_WriteReg(R11, 0x00000000)  returns 0x00 (0000ms, 1028ms total)
T1554 001:834 JLINK_WriteReg(R12, 0x00000000)  returns 0x00 (0000ms, 1028ms total)
T1554 001:834 JLINK_WriteReg(R13, 0x20000800)  returns 0x00 (0000ms, 1028ms total)
T1554 001:834 JLINK_WriteReg(R14, 0x20000001)  returns 0x00 (0000ms, 1028ms total)
T1554 001:834 JLINK_WriteReg(R15, 0x200000E8)  returns 0x00 (0000ms, 1028ms total)
T1554 001:834 JLINK_WriteReg(XPSR, 0x01000000)  returns 0x00 (0000ms, 1028ms total)
T1554 001:834 JLINK_WriteReg(MSP, 0x20000800)  returns 0x00 (0000ms, 1028ms total)
T1554 001:834 JLINK_WriteReg(PSP, 0x20000800)  returns 0x00 (0000ms, 1028ms total)
T1554 001:834 JLINK_WriteReg(CFBP, 0x00000000)  returns 0x00 (0000ms, 1028ms total)
T1554 001:834 JLINK_SetBPEx(Addr = 0x20000000, Type = 0xFFFFFFF2)  returns 0x0000000A (0000ms, 1028ms total)
T1554 001:834 JLINK_Go() (0008ms, 1036ms total)
T1554 001:842 JLINK_IsHalted()  returns FALSE (0002ms, 1038ms total)
T1554 001:861 JLINK_IsHalted() -- CPU_ReadMem(2 bytes @ 0x20000000)  returns TRUE (0021ms, 1057ms total)
T1554 001:882 JLINK_ReadReg(R15)  returns 0x20000000 (0000ms, 1036ms total)
T1554 001:882 JLINK_ClrBPEx(BPHandle = 0x0000000A)  returns 0x00 (0000ms, 1036ms total)
T1554 001:882 JLINK_ReadReg(R0)  returns 0x00000000 (0000ms, 1036ms total)
T1554 001:882 JLINK_WriteMem(0x20000668, 0x0100 Bytes, ...) -- Data:  52 6C C2 F3 03 62 52 1C B0 FB F2 F2 0D 4B 1A 60 ... -- CPU_WriteMem(256 bytes @ 0x20000668)  returns 0x100 (0017ms, 1053ms total)
T1554 001:899 JLINK_WriteReg(R0, 0x00000600)  returns 0x00 (0000ms, 1053ms total)
T1554 001:899 JLINK_WriteReg(R1, 0x00000100)  returns 0x00 (0000ms, 1053ms total)
T1554 001:899 JLINK_WriteReg(R2, 0x20000668)  returns 0x00 (0000ms, 1053ms total)
T1554 001:900 JLINK_WriteReg(R3, 0x00000000)  returns 0x00 (0000ms, 1054ms total)
T1554 001:900 JLINK_WriteReg(R4, 0x00000000)  returns 0x00 (0000ms, 1054ms total)
T1554 001:900 JLINK_WriteReg(R5, 0x00000000)  returns 0x00 (0000ms, 1054ms total)
T1554 001:900 JLINK_WriteReg(R6, 0x00000000)  returns 0x00 (0000ms, 1054ms total)
T1554 001:900 JLINK_WriteReg(R7, 0x00000000)  returns 0x00 (0000ms, 1054ms total)
T1554 001:900 JLINK_WriteReg(R8, 0x00000000)  returns 0x00 (0000ms, 1054ms total)
T1554 001:900 JLINK_WriteReg(R9, 0x20000638)  returns 0x00 (0000ms, 1054ms total)
T1554 001:900 JLINK_WriteReg(R10, 0x00000000)  returns 0x00 (0000ms, 1054ms total)
T1554 001:900 JLINK_WriteReg(R11, 0x00000000)  returns 0x00 (0000ms, 1054ms total)
T1554 001:900 JLINK_WriteReg(R12, 0x00000000)  returns 0x00 (0000ms, 1054ms total)
T1554 001:900 JLINK_WriteReg(R13, 0x20000800)  returns 0x00 (0000ms, 1054ms total)
T1554 001:900 JLINK_WriteReg(R14, 0x20000001)  returns 0x00 (0000ms, 1054ms total)
T1554 001:900 JLINK_WriteReg(R15, 0x200000E8)  returns 0x00 (0000ms, 1054ms total)
T1554 001:900 JLINK_WriteReg(XPSR, 0x01000000)  returns 0x00 (0000ms, 1054ms total)
T1554 001:900 JLINK_WriteReg(MSP, 0x20000800)  returns 0x00 (0000ms, 1054ms total)
T1554 001:900 JLINK_WriteReg(PSP, 0x20000800)  returns 0x00 (0000ms, 1054ms total)
T1554 001:900 JLINK_WriteReg(CFBP, 0x00000000)  returns 0x00 (0000ms, 1054ms total)
T1554 001:900 JLINK_SetBPEx(Addr = 0x20000000, Type = 0xFFFFFFF2)  returns 0x0000000B (0000ms, 1054ms total)
T1554 001:900 JLINK_Go() (0008ms, 1062ms total)
T1554 001:908 JLINK_IsHalted()  returns FALSE (0002ms, 1064ms total)
T1554 001:971 JLINK_IsHalted() -- CPU_ReadMem(2 bytes @ 0x20000000)  returns TRUE (0020ms, 1082ms total)
T1554 001:991 JLINK_ReadReg(R15)  returns 0x20000000 (0000ms, 1062ms total)
T1554 001:991 JLINK_ClrBPEx(BPHandle = 0x0000000B)  returns 0x00 (0000ms, 1062ms total)
T1554 001:991 JLINK_ReadReg(R0)  returns 0x00000000 (0000ms, 1062ms total)
T1554 001:992 JLINK_WriteMem(0x20000668, 0x0100 Bytes, ...) -- Data:  02 04 40 F8 22 40 4C 69 01 25 95 40 2C 43 4C 61 ... -- CPU_WriteMem(256 bytes @ 0x20000668)  returns 0x100 (0018ms, 1080ms total)
T1554 002:010 JLINK_WriteReg(R0, 0x00000700)  returns 0x00 (0000ms, 1080ms total)
T1554 002:010 JLINK_WriteReg(R1, 0x00000100)  returns 0x00 (0000ms, 1080ms total)
T1554 002:010 JLINK_WriteReg(R2, 0x20000668)  returns 0x00 (0000ms, 1080ms total)
T1554 002:010 JLINK_WriteReg(R3, 0x00000000)  returns 0x00 (0000ms, 1080ms total)
T1554 002:010 JLINK_WriteReg(R4, 0x00000000)  returns 0x00 (0000ms, 1080ms total)
T1554 002:010 JLINK_WriteReg(R5, 0x00000000)  returns 0x00 (0000ms, 1080ms total)
T1554 002:010 JLINK_WriteReg(R6, 0x00000000)  returns 0x00 (0000ms, 1080ms total)
T1554 002:010 JLINK_WriteReg(R7, 0x00000000)  returns 0x00 (0000ms, 1080ms total)
T1554 002:010 JLINK_WriteReg(R8, 0x00000000)  returns 0x00 (0001ms, 1081ms total)
T1554 002:011 JLINK_WriteReg(R9, 0x20000638)  returns 0x00 (0000ms, 1081ms total)
T1554 002:011 JLINK_WriteReg(R10, 0x00000000)  returns 0x00 (0000ms, 1081ms total)
T1554 002:011 JLINK_WriteReg(R11, 0x00000000)  returns 0x00 (0000ms, 1081ms total)
T1554 002:011 JLINK_WriteReg(R12, 0x00000000)  returns 0x00 (0000ms, 1081ms total)
T1554 002:011 JLINK_WriteReg(R13, 0x20000800)  returns 0x00 (0000ms, 1081ms total)
T1554 002:011 JLINK_WriteReg(R14, 0x20000001)  returns 0x00 (0000ms, 1081ms total)
T1554 002:011 JLINK_WriteReg(R15, 0x200000E8)  returns 0x00 (0000ms, 1081ms total)
T1554 002:011 JLINK_WriteReg(XPSR, 0x01000000)  returns 0x00 (0000ms, 1081ms total)
T1554 002:011 JLINK_WriteReg(MSP, 0x20000800)  returns 0x00 (0000ms, 1081ms total)
T1554 002:011 JLINK_WriteReg(PSP, 0x20000800)  returns 0x00 (0000ms, 1081ms total)
T1554 002:011 JLINK_WriteReg(CFBP, 0x00000000)  returns 0x00 (0000ms, 1081ms total)
T1554 002:011 JLINK_SetBPEx(Addr = 0x20000000, Type = 0xFFFFFFF2)  returns 0x0000000C (0000ms, 1081ms total)
T1554 002:011 JLINK_Go() (0009ms, 1090ms total)
T1554 002:020 JLINK_IsHalted()  returns FALSE (0002ms, 1092ms total)
T1554 002:063 JLINK_IsHalted() -- CPU_ReadMem(2 bytes @ 0x20000000)  returns TRUE (0020ms, 1110ms total)
T1554 002:083 JLINK_ReadReg(R15)  returns 0x20000000 (0000ms, 1090ms total)
T1554 002:083 JLINK_ClrBPEx(BPHandle = 0x0000000C)  returns 0x00 (0000ms, 1090ms total)
T1554 002:083 JLINK_ReadReg(R0)  returns 0x00000000 (0000ms, 1090ms total)
T1554 002:084 JLINK_WriteMem(0x20000668, 0x0100 Bytes, ...) -- Data:  53 F8 20 30 9B 68 01 24 8C 40 23 43 9E 4C 54 F8 ... -- CPU_WriteMem(256 bytes @ 0x20000668)  returns 0x100 (0019ms, 1109ms total)
T1554 002:103 JLINK_WriteReg(R0, 0x00000800)  returns 0x00 (0000ms, 1109ms total)
T1554 002:103 JLINK_WriteReg(R1, 0x00000100)  returns 0x00 (0000ms, 1109ms total)
T1554 002:103 JLINK_WriteReg(R2, 0x20000668)  returns 0x00 (0000ms, 1109ms total)
T1554 002:103 JLINK_WriteReg(R3, 0x00000000)  returns 0x00 (0000ms, 1109ms total)
T1554 002:103 JLINK_WriteReg(R4, 0x00000000)  returns 0x00 (0000ms, 1109ms total)
T1554 002:103 JLINK_WriteReg(R5, 0x00000000)  returns 0x00 (0000ms, 1109ms total)
T1554 002:103 JLINK_WriteReg(R6, 0x00000000)  returns 0x00 (0000ms, 1109ms total)
T1554 002:103 JLINK_WriteReg(R7, 0x00000000)  returns 0x00 (0000ms, 1109ms total)
T1554 002:103 JLINK_WriteReg(R8, 0x00000000)  returns 0x00 (0000ms, 1109ms total)
T1554 002:103 JLINK_WriteReg(R9, 0x20000638)  returns 0x00 (0000ms, 1109ms total)
T1554 002:103 JLINK_WriteReg(R10, 0x00000000)  returns 0x00 (0000ms, 1109ms total)
T1554 002:103 JLINK_WriteReg(R11, 0x00000000)  returns 0x00 (0000ms, 1109ms total)
T1554 002:103 JLINK_WriteReg(R12, 0x00000000)  returns 0x00 (0000ms, 1109ms total)
T1554 002:103 JLINK_WriteReg(R13, 0x20000800)  returns 0x00 (0000ms, 1109ms total)
T1554 002:103 JLINK_WriteReg(R14, 0x20000001)  returns 0x00 (0000ms, 1109ms total)
T1554 002:103 JLINK_WriteReg(R15, 0x200000E8)  returns 0x00 (0000ms, 1109ms total)
T1554 002:103 JLINK_WriteReg(XPSR, 0x01000000)  returns 0x00 (0000ms, 1109ms total)
